
T0164 000:812 SEGGER J-Link V4.15n (beta) Log File (0001ms, 0809ms total)
T0164 000:812 DLL Compiled: Jun 18 2010 19:55:09 (0001ms, 0809ms total)
T0164 000:812 Logging started @ 2012-07-13 11:33 (0001ms, 0809ms total)
T0164 000:813 JLINK_SetWarnOutHandler(...) (0000ms, 0810ms total)
T0164 000:813 JLINK_OpenEx(...)
Firmware: J-Link ARM V8 compiled May 20 2010 17:07:46
Hardware: V8.00
S/N: 20100214
Feature(s): RDI,FlashDL,FlashBP,JFlash,GDBFull  returns O.K. (0076ms, 0810ms total)
T0164 000:889 JLINK_SetErrorOutHandler(...) (0000ms, 0886ms total)
T0164 000:889 JLINK_ExecCommand("ProjectFile = "D:\code_tmp\CP_S3xxx_v5\JLinkSettings.ini"", ...)  returns 0x00 (0000ms, 0886ms total)
T0164 000:891 JLINK_ExecCommand("DisableConnectionTimeout", ...)  returns 0x00 (0000ms, 0887ms total)
T0164 000:895 JLINK_TIF_Select(JLINKARM_TIF_SWD)  returns 0x00 (0004ms, 0888ms total)
T0164 000:899 JLINK_SetSpeed(10000) (0003ms, 0892ms total)
T0164 000:902 JLINK_GetHardwareVersion()  returns 0x13880 (0000ms, 0895ms total)
T0164 000:902 JLINK_GetDLLVersion()  returns 41514 (0000ms, 0895ms total)
T0164 000:902 JLINK_GetFirmwareString(...) (0000ms, 0895ms total)
T0164 000:906 JLINK_GetDLLVersion()  returns 41514 (0000ms, 0895ms total)
T0164 000:906 JLINK_GetCompileDateTime() (0000ms, 0895ms total)
T0164 000:907 JLINK_GetFirmwareString(...) (0000ms, 0895ms total)
T0164 000:909 JLINK_GetHardwareVersion()  returns 0x13880 (0000ms, 0895ms total)
T0164 000:915 JLINK_Reset() >0x108 TIF>Found SWD-DP with ID 0x1BA01477 >0x33 TIF> >0x33 TIF> >0x35 TIF> >0x33 TIF> >0x35 TIF> >0x33 TIF> >0x33 TIF> >0x9B TIF> >0x9B TIF> >0x1D7 TIF> >0x13A TIF> >0x13A TIF>TPIU fitted. >0x13A TIF>ETM fitted. >0x13A TIF>  FPUnit: 6 code (BP) slots and 2 literal slots >0x13A TIF> >0x13A TIF> (0058ms, 0895ms total)
T0164 000:974 JLINK_JTAG_StoreRaw(..., 0x108 Bits)  returns 0x00 (0000ms, 0954ms total)
T0164 000:974 JLINK_JTAG_GetU32(BitPos = 227) >0x108 TIF>  returns 0x1BA01477 (0002ms, 0954ms total)
T0164 000:976 JLINK_GetDebugInfo(0x100) -- Value=0xE00FF003  returns 0x00 (0000ms, 0956ms total)
T0164 000:977 JLINK_ReadMem (0xE00FF000, 0x0018 Bytes, ...) -- CPU_ReadMem(24 bytes @ 0xE00FF000) -- Data:  03 F0 F0 FF 03 20 F0 FF 03 30 F0 FF 03 10 F0 FF ...  returns 0x00 (0002ms, 0956ms total)
T0164 000:979 JLINK_ReadMemU32(0xE000ED00, 0x0001 Items, ...) -- CPU_ReadMem(4 bytes @ 0xE000ED00) -- Data:  31 C2 1F 41  returns 0x01 (0001ms, 0958ms total)
T0164 000:981 JLINK_Halt()  returns 0x00 (0000ms, 0959ms total)
T0164 000:981 JLINK_IsHalted()  returns TRUE (0000ms, 0959ms total)
T0164 000:981 JLINK_ReadMemU32(0xE000EDF0, 0x0001 Items, ...) -- CPU_ReadMem(4 bytes @ 0xE000EDF0) -- Data:  03 00 03 00  returns 0x01 (0002ms, 0959ms total)
T0164 000:983 JLINK_WriteU32(0xE000EDF0, 0xA05F0003) -- CPU_WriteMem(4 bytes @ 0xE000EDF0)  returns 0x00 (0001ms, 0961ms total)
T0164 000:984 JLINK_WriteU32(0xE000EDFC, 0x01000000) -- CPU_WriteMem(4 bytes @ 0xE000EDFC)  returns 0x00 (0001ms, 0962ms total)
T0164 000:985 JLINK_ReadMemU32(0xE0002000, 0x0001 Items, ...) -- CPU_ReadMem(4 bytes @ 0xE0002000) -- Data:  60 02 00 00  returns 0x01 (0001ms, 0963ms total)
T0164 000:986 JLINK_ReadMemU32(0xE0001000, 0x0001 Items, ...) -- CPU_ReadMem(4 bytes @ 0xE0001000) -- Data:  01 00 00 40  returns 0x01 (0001ms, 0964ms total)
T0164 000:996 JLINK_ExecCommand("Device = STM32F103VC", ...)
                JLINK_ExecCommand("map ram 0x20000000 - 0x2000BFFF", ...)  returns 0x00 (0000ms, 0000ms total)
                JLINK_AddMirrorAreaEx(Addr = 0x00000000, Size = 0x00000000) (0000ms, 0000ms total)
                returns 0x00 (0001ms, 0965ms total)
T0164 000:997 JLINK_GetHWStatus(...)  returns 0x00 (0002ms, 0966ms total)
T0164 001:007 JLINK_GetNumBPUnits(Type = 0xFFFFFF00) >0x108 TIF>Found SWD-DP with ID 0x1BA01477 >0x33 TIF> >0x33 TIF> >0x35 TIF> >0x33 TIF> >0x35 TIF> >0x33 TIF> >0x33 TIF> >0x9B TIF> >0x9B TIF> >0x1D7 TIF> >0x13A TIF> >0x13A TIF>TPIU fitted. >0x13A TIF>ETM fitted. >0x13A TIF>  FPUnit: 6 code (BP) slots and 2 literal slots >0x13A TIF> >0x13A TIF>  returns 0x06 (0043ms, 0968ms total)
T0164 001:051 JLINK_GetNumBPUnits(Type = 0xF0)  returns 0x800 (0001ms, 1011ms total)
T0164 001:052 JLINK_GetNumWPUnits()  returns 0x04 (0000ms, 1012ms total)
T0164 001:057 JLINK_GetSpeed()  returns 0xFA0 (0000ms, 1012ms total)
T0164 001:060 JLINK_ReadMemU32(0xE000E004, 0x0001 Items, ...) -- CPU_ReadMem(4 bytes @ 0xE000E004) -- Data:  01 00 00 00  returns 0x01 (0001ms, 1012ms total)
T0164 001:061 JLINK_WriteMem(0xE0001000, 0x001C Bytes, ...) -- Data:  01 00 00 00 00 00 00 00 00 00 00 00 00 00 00 00 ... -- CPU_WriteMem(28 bytes @ 0xE0001000)  returns 0x1C (0001ms, 1013ms total)
T0164 001:062 JLINK_ReadMem (0xE0001000, 0x001C Bytes, ...) -- CPU_ReadMem(28 bytes @ 0xE0001000) -- Data:  01 00 00 40 00 00 00 00 00 00 00 00 00 00 00 00 ...  returns 0x00 (0001ms, 1014ms total)
T0164 001:063 JLINK_Halt()  returns 0x00 (0000ms, 1015ms total)
T0164 001:063 JLINK_IsHalted()  returns TRUE (0000ms, 1015ms total)
T0164 001:066 JLINK_WriteMem(0x20000000, 0x0164 Bytes, ...) -- Data:  00 BE 0A E0 0D 78 2D 06 68 40 08 24 40 00 00 D3 ... -- CPU_WriteMem(356 bytes @ 0x20000000)  returns 0x164 (0003ms, 1015ms total)
T0164 001:069 JLINK_WriteReg(R0, 0x08000000)  returns 0x00 (0000ms, 1018ms total)
T0164 001:069 JLINK_WriteReg(R1, 0x007A1200)  returns 0x00 (0000ms, 1018ms total)
T0164 001:069 JLINK_WriteReg(R2, 0x00000001)  returns 0x00 (0000ms, 1018ms total)
T0164 001:069 JLINK_WriteReg(R3, 0x00000000)  returns 0x00 (0000ms, 1018ms total)
T0164 001:069 JLINK_WriteReg(R4, 0x00000000)  returns 0x00 (0000ms, 1018ms total)
T0164 001:069 JLINK_WriteReg(R5, 0x00000000)  returns 0x00 (0000ms, 1018ms total)
T0164 001:069 JLINK_WriteReg(R6, 0x00000000)  returns 0x00 (0001ms, 1018ms total)
T0164 001:070 JLINK_WriteReg(R7, 0x00000000)  returns 0x00 (0000ms, 1019ms total)
T0164 001:070 JLINK_WriteReg(R8, 0x00000000)  returns 0x00 (0000ms, 1019ms total)
T0164 001:070 JLINK_WriteReg(R9, 0x20000160)  returns 0x00 (0000ms, 1019ms total)
T0164 001:070 JLINK_WriteReg(R10, 0x00000000)  returns 0x00 (0000ms, 1019ms total)
T0164 001:070 JLINK_WriteReg(R11, 0x00000000)  returns 0x00 (0000ms, 1019ms total)
T0164 001:070 JLINK_WriteReg(R12, 0x00000000)  returns 0x00 (0000ms, 1019ms total)
T0164 001:070 JLINK_WriteReg(R13, 0x20000800)  returns 0x00 (0000ms, 1019ms total)
T0164 001:070 JLINK_WriteReg(R14, 0x20000001)  returns 0x00 (0000ms, 1019ms total)
T0164 001:070 JLINK_WriteReg(R15, 0x20000038)  returns 0x00 (0000ms, 1019ms total)
T0164 001:070 JLINK_WriteReg(XPSR, 0x01000000)  returns 0x00 (0000ms, 1019ms total)
T0164 001:070 JLINK_WriteReg(MSP, 0x20000800)  returns 0x00 (0000ms, 1019ms total)
T0164 001:070 JLINK_WriteReg(PSP, 0x20000800)  returns 0x00 (0000ms, 1019ms total)
T0164 001:070 JLINK_WriteReg(CFBP, 0x00000000)  returns 0x00 (0000ms, 1019ms total)
T0164 001:070 JLINK_SetBPEx(Addr = 0x20000000, Type = 0xFFFFFFF2) -- CPU_ReadMem(2 bytes @ 0x20000000)  returns 0x00000001 (0001ms, 1019ms total)
T0164 001:071 JLINK_Go() -- CPU_WriteMem(2 bytes @ 0x20000000) -- CPU_WriteMem(4 bytes @ 0xE0002008) -- CPU_WriteMem(4 bytes @ 0xE000200C) -- CPU_WriteMem(4 bytes @ 0xE0002010) -- CPU_WriteMem(4 bytes @ 0xE0002014) -- CPU_WriteMem(4 bytes @ 0xE0002018) -- CPU_WriteMem(4 bytes @ 0xE000201C) (0009ms, 1020ms total)
T0164 001:080 JLINK_IsHalted() -- CPU_ReadMem(2 bytes @ 0x20000000)  returns TRUE (0006ms, 1029ms total)
T0164 001:086 JLINK_ReadReg(R15)  returns 0x20000000 (0000ms, 1029ms total)
T0164 001:086 JLINK_ClrBPEx(BPHandle = 0x00000001)  returns 0x00 (0000ms, 1029ms total)
T0164 001:086 JLINK_ReadReg(R0)  returns 0x00000000 (0000ms, 1029ms total)
T0164 001:087 JLINK_WriteReg(R0, 0x08000000)  returns 0x00 (0000ms, 1029ms total)
T0164 001:087 JLINK_WriteReg(R1, 0x007A1200)  returns 0x00 (0000ms, 1029ms total)
T0164 001:087 JLINK_WriteReg(R2, 0x00000001)  returns 0x00 (0000ms, 1029ms total)
T0164 001:087 JLINK_WriteReg(R3, 0x00000000)  returns 0x00 (0000ms, 1029ms total)
T0164 001:087 JLINK_WriteReg(R4, 0x00000000)  returns 0x00 (0000ms, 1029ms total)
T0164 001:087 JLINK_WriteReg(R5, 0x00000000)  returns 0x00 (0000ms, 1029ms total)
T0164 001:087 JLINK_WriteReg(R6, 0x00000000)  returns 0x00 (0000ms, 1029ms total)
T0164 001:087 JLINK_WriteReg(R7, 0x00000000)  returns 0x00 (0000ms, 1029ms total)
T0164 001:087 JLINK_WriteReg(R8, 0x00000000)  returns 0x00 (0000ms, 1029ms total)
T0164 001:087 JLINK_WriteReg(R9, 0x20000160)  returns 0x00 (0000ms, 1029ms total)
T0164 001:087 JLINK_WriteReg(R10, 0x00000000)  returns 0x00 (0000ms, 1029ms total)
T0164 001:087 JLINK_WriteReg(R11, 0x00000000)  returns 0x00 (0000ms, 1029ms total)
T0164 001:087 JLINK_WriteReg(R12, 0x00000000)  returns 0x00 (0000ms, 1029ms total)
T0164 001:087 JLINK_WriteReg(R13, 0x20000800)  returns 0x00 (0000ms, 1029ms total)
T0164 001:087 JLINK_WriteReg(R14, 0x20000001)  returns 0x00 (0000ms, 1029ms total)
T0164 001:087 JLINK_WriteReg(R15, 0x2000007C)  returns 0x00 (0000ms, 1029ms total)
T0164 001:087 JLINK_WriteReg(XPSR, 0x01000000)  returns 0x00 (0000ms, 1029ms total)
T0164 001:087 JLINK_WriteReg(MSP, 0x20000800)  returns 0x00 (0000ms, 1029ms total)
T0164 001:087 JLINK_WriteReg(PSP, 0x20000800)  returns 0x00 (0000ms, 1029ms total)
T0164 001:087 JLINK_WriteReg(CFBP, 0x00000000)  returns 0x00 (0000ms, 1029ms total)
T0164 001:087 JLINK_SetBPEx(Addr = 0x20000000, Type = 0xFFFFFFF2)  returns 0x00000002 (0000ms, 1029ms total)
T0164 001:087 JLINK_Go() -- CPU_WriteMem(4 bytes @ 0xE0002008) -- CPU_WriteMem(4 bytes @ 0xE000200C) -- CPU_WriteMem(4 bytes @ 0xE0002010) -- CPU_WriteMem(4 bytes @ 0xE0002014) -- CPU_WriteMem(4 bytes @ 0xE0002018) -- CPU_WriteMem(4 bytes @ 0xE000201C) (0008ms, 1029ms total)
T0164 001:095 JLINK_IsHalted()  returns FALSE (0001ms, 1037ms total)
T0164 001:147 JLINK_IsHalted() -- CPU_ReadMem(2 bytes @ 0x20000000)  returns TRUE (0006ms, 1037ms total)
T0164 001:153 JLINK_ReadReg(R15)  returns 0x20000000 (0000ms, 1037ms total)
T0164 001:153 JLINK_ClrBPEx(BPHandle = 0x00000002)  returns 0x00 (0000ms, 1037ms total)
T0164 001:153 JLINK_ReadReg(R0)  returns 0x00000000 (0000ms, 1037ms total)
T0164 001:204 JLINK_WriteReg(R0, 0x00000001)  returns 0x00 (0000ms, 1037ms total)
T0164 001:204 JLINK_WriteReg(R1, 0x007A1200)  returns 0x00 (0000ms, 1037ms total)
T0164 001:204 JLINK_WriteReg(R2, 0x00000001)  returns 0x00 (0000ms, 1037ms total)
T0164 001:204 JLINK_WriteReg(R3, 0x00000000)  returns 0x00 (0000ms, 1037ms total)
T0164 001:204 JLINK_WriteReg(R4, 0x00000000)  returns 0x00 (0000ms, 1037ms total)
T0164 001:204 JLINK_WriteReg(R5, 0x00000000)  returns 0x00 (0000ms, 1037ms total)
T0164 001:204 JLINK_WriteReg(R6, 0x00000000)  returns 0x00 (0000ms, 1037ms total)
T0164 001:204 JLINK_WriteReg(R7, 0x00000000)  returns 0x00 (0000ms, 1037ms total)
T0164 001:205 JLINK_WriteReg(R8, 0x00000000)  returns 0x00 (0000ms, 1038ms total)
T0164 001:205 JLINK_WriteReg(R9, 0x20000160)  returns 0x00 (0000ms, 1038ms total)
T0164 001:205 JLINK_WriteReg(R10, 0x00000000)  returns 0x00 (0000ms, 1038ms total)
T0164 001:205 JLINK_WriteReg(R11, 0x00000000)  returns 0x00 (0000ms, 1038ms total)
T0164 001:205 JLINK_WriteReg(R12, 0x00000000)  returns 0x00 (0000ms, 1038ms total)
T0164 001:205 JLINK_WriteReg(R13, 0x20000800)  returns 0x00 (0000ms, 1038ms total)
T0164 001:205 JLINK_WriteReg(R14, 0x20000001)  returns 0x00 (0000ms, 1038ms total)
T0164 001:205 JLINK_WriteReg(R15, 0x2000006A)  returns 0x00 (0000ms, 1038ms total)
T0164 001:205 JLINK_WriteReg(XPSR, 0x01000000)  returns 0x00 (0000ms, 1038ms total)
T0164 001:205 JLINK_WriteReg(MSP, 0x20000800)  returns 0x00 (0000ms, 1038ms total)
T0164 001:205 JLINK_WriteReg(PSP, 0x20000800)  returns 0x00 (0000ms, 1038ms total)
T0164 001:205 JLINK_WriteReg(CFBP, 0x00000000)  returns 0x00 (0000ms, 1038ms total)
T0164 001:205 JLINK_SetBPEx(Addr = 0x20000000, Type = 0xFFFFFFF2)  returns 0x00000003 (0000ms, 1038ms total)
T0164 001:205 JLINK_Go() -- CPU_WriteMem(4 bytes @ 0xE0002008) -- CPU_WriteMem(4 bytes @ 0xE000200C) -- CPU_WriteMem(4 bytes @ 0xE0002010) -- CPU_WriteMem(4 bytes @ 0xE0002014) -- CPU_WriteMem(4 bytes @ 0xE0002018) -- CPU_WriteMem(4 bytes @ 0xE000201C) (0008ms, 1038ms total)
T0164 001:213 JLINK_IsHalted() -- CPU_ReadMem(2 bytes @ 0x20000000)  returns TRUE (0006ms, 1046ms total)
T0164 001:219 JLINK_ReadReg(R15)  returns 0x20000000 (0000ms, 1046ms total)
T0164 001:219 JLINK_ClrBPEx(BPHandle = 0x00000003)  returns 0x00 (0001ms, 1046ms total)
T0164 001:220 JLINK_ReadReg(R0)  returns 0x00000000 (0000ms, 1047ms total)
T0164 001:224 JLINK_WriteMem(0x20000000, 0x0164 Bytes, ...) -- Data:  00 BE 0A E0 0D 78 2D 06 68 40 08 24 40 00 00 D3 ... -- CPU_WriteMem(356 bytes @ 0x20000000)  returns 0x164 (0004ms, 1047ms total)
T0164 001:228 JLINK_WriteReg(R0, 0x08000000)  returns 0x00 (0000ms, 1051ms total)
T0164 001:228 JLINK_WriteReg(R1, 0x007A1200)  returns 0x00 (0000ms, 1051ms total)
T0164 001:228 JLINK_WriteReg(R2, 0x00000002)  returns 0x00 (0000ms, 1051ms total)
T0164 001:228 JLINK_WriteReg(R3, 0x00000000)  returns 0x00 (0000ms, 1051ms total)
T0164 001:228 JLINK_WriteReg(R4, 0x00000000)  returns 0x00 (0000ms, 1051ms total)
T0164 001:228 JLINK_WriteReg(R5, 0x00000000)  returns 0x00 (0000ms, 1051ms total)
T0164 001:228 JLINK_WriteReg(R6, 0x00000000)  returns 0x00 (0000ms, 1051ms total)
T0164 001:228 JLINK_WriteReg(R7, 0x00000000)  returns 0x00 (0000ms, 1051ms total)
T0164 001:228 JLINK_WriteReg(R8, 0x00000000)  returns 0x00 (0000ms, 1051ms total)
T0164 001:228 JLINK_WriteReg(R9, 0x20000160)  returns 0x00 (0000ms, 1051ms total)
T0164 001:228 JLINK_WriteReg(R10, 0x00000000)  returns 0x00 (0000ms, 1051ms total)
T0164 001:228 JLINK_WriteReg(R11, 0x00000000)  returns 0x00 (0000ms, 1051ms total)
T0164 001:228 JLINK_WriteReg(R12, 0x00000000)  returns 0x00 (0000ms, 1051ms total)
T0164 001:228 JLINK_WriteReg(R13, 0x20000800)  returns 0x00 (0000ms, 1051ms total)
T0164 001:228 JLINK_WriteReg(R14, 0x20000001)  returns 0x00 (0000ms, 1051ms total)
T0164 001:228 JLINK_WriteReg(R15, 0x20000038)  returns 0x00 (0000ms, 1051ms total)
T0164 001:228 JLINK_WriteReg(XPSR, 0x01000000)  returns 0x00 (0000ms, 1051ms total)
T0164 001:228 JLINK_WriteReg(MSP, 0x20000800)  returns 0x00 (0000ms, 1051ms total)
T0164 001:228 JLINK_WriteReg(PSP, 0x20000800)  returns 0x00 (0000ms, 1051ms total)
T0164 001:228 JLINK_WriteReg(CFBP, 0x00000000)  returns 0x00 (0000ms, 1051ms total)
T0164 001:228 JLINK_SetBPEx(Addr = 0x20000000, Type = 0xFFFFFFF2) -- CPU_ReadMem(2 bytes @ 0x20000000)  returns 0x00000004 (0002ms, 1051ms total)
T0164 001:230 JLINK_Go() -- CPU_WriteMem(2 bytes @ 0x20000000) -- CPU_WriteMem(4 bytes @ 0xE0002008) -- CPU_WriteMem(4 bytes @ 0xE000200C) -- CPU_WriteMem(4 bytes @ 0xE0002010) -- CPU_WriteMem(4 bytes @ 0xE0002014) -- CPU_WriteMem(4 bytes @ 0xE0002018) -- CPU_WriteMem(4 bytes @ 0xE000201C) (0009ms, 1053ms total)
T0164 001:239 JLINK_IsHalted() -- CPU_ReadMem(2 bytes @ 0x20000000)  returns TRUE (0005ms, 1062ms total)
T0164 001:244 JLINK_ReadReg(R15)  returns 0x20000000 (0000ms, 1062ms total)
T0164 001:244 JLINK_ClrBPEx(BPHandle = 0x00000004)  returns 0x00 (0000ms, 1062ms total)
T0164 001:244 JLINK_ReadReg(R0)  returns 0x00000000 (0000ms, 1062ms total)
T0164 001:244 JLINK_WriteMem(0x20000164, 0x0400 Bytes, ...) -- Data:  00 04 00 20 57 03 00 08 3D 13 00 08 3F 13 00 08 ... -- CPU_WriteMem(1024 bytes @ 0x20000164)  returns 0x400 (0007ms, 1062ms total)
T0164 001:251 JLINK_WriteReg(R0, 0x08000000)  returns 0x00 (0000ms, 1069ms total)
T0164 001:251 JLINK_WriteReg(R1, 0x00000400)  returns 0x00 (0000ms, 1069ms total)
T0164 001:251 JLINK_WriteReg(R2, 0x20000164)  returns 0x00 (0000ms, 1069ms total)
T0164 001:251 JLINK_WriteReg(R3, 0x00000000)  returns 0x00 (0000ms, 1069ms total)
T0164 001:251 JLINK_WriteReg(R4, 0x00000000)  returns 0x00 (0000ms, 1069ms total)
T0164 001:251 JLINK_WriteReg(R5, 0x00000000)  returns 0x00 (0000ms, 1069ms total)
T0164 001:251 JLINK_WriteReg(R6, 0x00000000)  returns 0x00 (0000ms, 1069ms total)
T0164 001:251 JLINK_WriteReg(R7, 0x00000000)  returns 0x00 (0000ms, 1069ms total)
T0164 001:251 JLINK_WriteReg(R8, 0x00000000)  returns 0x00 (0000ms, 1069ms total)
T0164 001:251 JLINK_WriteReg(R9, 0x20000160)  returns 0x00 (0001ms, 1069ms total)
T0164 001:252 JLINK_WriteReg(R10, 0x00000000)  returns 0x00 (0000ms, 1070ms total)
T0164 001:252 JLINK_WriteReg(R11, 0x00000000)  returns 0x00 (0000ms, 1070ms total)
T0164 001:252 JLINK_WriteReg(R12, 0x00000000)  returns 0x00 (0000ms, 1070ms total)
T0164 001:252 JLINK_WriteReg(R13, 0x20000800)  returns 0x00 (0000ms, 1070ms total)
T0164 001:252 JLINK_WriteReg(R14, 0x20000001)  returns 0x00 (0000ms, 1070ms total)
T0164 001:252 JLINK_WriteReg(R15, 0x200000F4)  returns 0x00 (0000ms, 1070ms total)
T0164 001:252 JLINK_WriteReg(XPSR, 0x01000000)  returns 0x00 (0000ms, 1070ms total)
T0164 001:252 JLINK_WriteReg(MSP, 0x20000800)  returns 0x00 (0000ms, 1070ms total)
T0164 001:252 JLINK_WriteReg(PSP, 0x20000800)  returns 0x00 (0000ms, 1070ms total)
T0164 001:252 JLINK_WriteReg(CFBP, 0x00000000)  returns 0x00 (0000ms, 1070ms total)
T0164 001:252 JLINK_SetBPEx(Addr = 0x20000000, Type = 0xFFFFFFF2)  returns 0x00000005 (0000ms, 1070ms total)
T0164 001:252 JLINK_Go() -- CPU_WriteMem(4 bytes @ 0xE0002008) -- CPU_WriteMem(4 bytes @ 0xE000200C) -- CPU_WriteMem(4 bytes @ 0xE0002010) -- CPU_WriteMem(4 bytes @ 0xE0002014) -- CPU_WriteMem(4 bytes @ 0xE0002018) -- CPU_WriteMem(4 bytes @ 0xE000201C) (0009ms, 1070ms total)
T0164 001:261 JLINK_IsHalted()  returns FALSE (0001ms, 1079ms total)
T0164 001:313 JLINK_IsHalted() -- CPU_ReadMem(2 bytes @ 0x20000000)  returns TRUE (0006ms, 1079ms total)
T0164 001:319 JLINK_ReadReg(R15)  returns 0x20000000 (0000ms, 1079ms total)
T0164 001:319 JLINK_ClrBPEx(BPHandle = 0x00000005)  returns 0x00 (0000ms, 1079ms total)
T0164 001:319 JLINK_ReadReg(R0)  returns 0x00000000 (0000ms, 1079ms total)
T0164 001:319 JLINK_WriteMem(0x20000164, 0x0400 Bytes, ...) -- Data:  F1 48 00 68 08 B9 02 20 F9 E7 F0 48 00 68 08 B9 ... -- CPU_WriteMem(1024 bytes @ 0x20000164)  returns 0x400 (0006ms, 1079ms total)
T0164 001:325 JLINK_WriteReg(R0, 0x08000400)  returns 0x00 (0000ms, 1085ms total)
T0164 001:325 JLINK_WriteReg(R1, 0x00000400)  returns 0x00 (0000ms, 1085ms total)
T0164 001:325 JLINK_WriteReg(R2, 0x20000164)  returns 0x00 (0000ms, 1085ms total)
T0164 001:325 JLINK_WriteReg(R3, 0x00000000)  returns 0x00 (0000ms, 1085ms total)
T0164 001:325 JLINK_WriteReg(R4, 0x00000000)  returns 0x00 (0000ms, 1085ms total)
T0164 001:325 JLINK_WriteReg(R5, 0x00000000)  returns 0x00 (0000ms, 1085ms total)
T0164 001:325 JLINK_WriteReg(R6, 0x00000000)  returns 0x00 (0000ms, 1085ms total)
T0164 001:325 JLINK_WriteReg(R7, 0x00000000)  returns 0x00 (0000ms, 1085ms total)
T0164 001:325 JLINK_WriteReg(R8, 0x00000000)  returns 0x00 (0000ms, 1085ms total)
T0164 001:325 JLINK_WriteReg(R9, 0x20000160)  returns 0x00 (0000ms, 1085ms total)
T0164 001:325 JLINK_WriteReg(R10, 0x00000000)  returns 0x00 (0000ms, 1085ms total)
T0164 001:325 JLINK_WriteReg(R11, 0x00000000)  returns 0x00 (0000ms, 1085ms total)
T0164 001:325 JLINK_WriteReg(R12, 0x00000000)  returns 0x00 (0000ms, 1085ms total)
T0164 001:325 JLINK_WriteReg(R13, 0x20000800)  returns 0x00 (0000ms, 1085ms total)
T0164 001:325 JLINK_WriteReg(R14, 0x20000001)  returns 0x00 (0000ms, 1085ms total)
T0164 001:325 JLINK_WriteReg(R15, 0x200000F4)  returns 0x00 (0001ms, 1085ms total)
T0164 001:326 JLINK_WriteReg(XPSR, 0x01000000)  returns 0x00 (0000ms, 1086ms total)
T0164 001:326 JLINK_WriteReg(MSP, 0x20000800)  returns 0x00 (0000ms, 1086ms total)
T0164 001:326 JLINK_WriteReg(PSP, 0x20000800)  returns 0x00 (0000ms, 1086ms total)
T0164 001:326 JLINK_WriteReg(CFBP, 0x00000000)  returns 0x00 (0000ms, 1086ms total)
T0164 001:326 JLINK_SetBPEx(Addr = 0x20000000, Type = 0xFFFFFFF2)  returns 0x00000006 (0000ms, 1086ms total)
T0164 001:326 JLINK_Go() -- CPU_WriteMem(4 bytes @ 0xE0002008) -- CPU_WriteMem(4 bytes @ 0xE000200C) -- CPU_WriteMem(4 bytes @ 0xE0002010) -- CPU_WriteMem(4 bytes @ 0xE0002014) -- CPU_WriteMem(4 bytes @ 0xE0002018) -- CPU_WriteMem(4 bytes @ 0xE000201C) (0008ms, 1086ms total)
T0164 001:334 JLINK_IsHalted()  returns FALSE (0001ms, 1094ms total)
T0164 001:386 JLINK_IsHalted() -- CPU_ReadMem(2 bytes @ 0x20000000)  returns TRUE (0006ms, 1094ms total)
T0164 001:392 JLINK_ReadReg(R15)  returns 0x20000000 (0000ms, 1094ms total)
T0164 001:392 JLINK_ClrBPEx(BPHandle = 0x00000006)  returns 0x00 (0000ms, 1094ms total)
T0164 001:392 JLINK_ReadReg(R0)  returns 0x00000000 (0000ms, 1094ms total)
T0164 001:392 JLINK_WriteMem(0x20000164, 0x0400 Bytes, ...) -- Data:  00 F0 FF 1F F0 F7 FF 1F 54 00 00 20 56 00 00 20 ... -- CPU_WriteMem(1024 bytes @ 0x20000164)  returns 0x400 (0007ms, 1094ms total)
T0164 001:399 JLINK_WriteReg(R0, 0x08000800)  returns 0x00 (0000ms, 1101ms total)
T0164 001:399 JLINK_WriteReg(R1, 0x00000400)  returns 0x00 (0000ms, 1101ms total)
T0164 001:399 JLINK_WriteReg(R2, 0x20000164)  returns 0x00 (0000ms, 1101ms total)
T0164 001:399 JLINK_WriteReg(R3, 0x00000000)  returns 0x00 (0000ms, 1101ms total)
T0164 001:399 JLINK_WriteReg(R4, 0x00000000)  returns 0x00 (0000ms, 1101ms total)
T0164 001:399 JLINK_WriteReg(R5, 0x00000000)  returns 0x00 (0000ms, 1101ms total)
T0164 001:399 JLINK_WriteReg(R6, 0x00000000)  returns 0x00 (0000ms, 1101ms total)
T0164 001:399 JLINK_WriteReg(R7, 0x00000000)  returns 0x00 (0000ms, 1101ms total)
T0164 001:399 JLINK_WriteReg(R8, 0x00000000)  returns 0x00 (0000ms, 1101ms total)
T0164 001:399 JLINK_WriteReg(R9, 0x20000160)  returns 0x00 (0000ms, 1101ms total)
T0164 001:399 JLINK_WriteReg(R10, 0x00000000)  returns 0x00 (0000ms, 1101ms total)
T0164 001:399 JLINK_WriteReg(R11, 0x00000000)  returns 0x00 (0000ms, 1101ms total)
T0164 001:399 JLINK_WriteReg(R12, 0x00000000)  returns 0x00 (0000ms, 1101ms total)
T0164 001:399 JLINK_WriteReg(R13, 0x20000800)  returns 0x00 (0000ms, 1101ms total)
T0164 001:399 JLINK_WriteReg(R14, 0x20000001)  returns 0x00 (0000ms, 1101ms total)
T0164 001:399 JLINK_WriteReg(R15, 0x200000F4)  returns 0x00 (0000ms, 1101ms total)
T0164 001:399 JLINK_WriteReg(XPSR, 0x01000000)  returns 0x00 (0000ms, 1101ms total)
T0164 001:399 JLINK_WriteReg(MSP, 0x20000800)  returns 0x00 (0000ms, 1101ms total)
T0164 001:399 JLINK_WriteReg(PSP, 0x20000800)  returns 0x00 (0000ms, 1101ms total)
T0164 001:399 JLINK_WriteReg(CFBP, 0x00000000)  returns 0x00 (0000ms, 1101ms total)
T0164 001:399 JLINK_SetBPEx(Addr = 0x20000000, Type = 0xFFFFFFF2)  returns 0x00000007 (0000ms, 1101ms total)
T0164 001:399 JLINK_Go() -- CPU_WriteMem(4 bytes @ 0xE0002008) -- CPU_WriteMem(4 bytes @ 0xE000200C) -- CPU_WriteMem(4 bytes @ 0xE0002010) -- CPU_WriteMem(4 bytes @ 0xE0002014) -- CPU_WriteMem(4 bytes @ 0xE0002018) -- CPU_WriteMem(4 bytes @ 0xE000201C) (0008ms, 1101ms total)
T0164 001:407 JLINK_IsHalted()  returns FALSE (0001ms, 1109ms total)
T0164 001:459 JLINK_IsHalted() -- CPU_ReadMem(2 bytes @ 0x20000000)  returns TRUE (0005ms, 1109ms total)
T0164 001:464 JLINK_ReadReg(R15)  returns 0x20000000 (0000ms, 1109ms total)
T0164 001:464 JLINK_ClrBPEx(BPHandle = 0x00000007)  returns 0x00 (0000ms, 1109ms total)
T0164 001:464 JLINK_ReadReg(R0)  returns 0x00000000 (0000ms, 1109ms total)
T0164 001:465 JLINK_WriteMem(0x20000164, 0x0400 Bytes, ...) -- Data:  02 22 FF 21 4B 48 00 78 05 F0 53 FE 06 F0 68 F8 ... -- CPU_WriteMem(1024 bytes @ 0x20000164)  returns 0x400 (0006ms, 1109ms total)
T0164 001:471 JLINK_WriteReg(R0, 0x08000C00)  returns 0x00 (0001ms, 1115ms total)
T0164 001:472 JLINK_WriteReg(R1, 0x00000400)  returns 0x00 (0000ms, 1116ms total)
T0164 001:472 JLINK_WriteReg(R2, 0x20000164)  returns 0x00 (0000ms, 1116ms total)
T0164 001:472 JLINK_WriteReg(R3, 0x00000000)  returns 0x00 (0000ms, 1116ms total)
T0164 001:472 JLINK_WriteReg(R4, 0x00000000)  returns 0x00 (0000ms, 1116ms total)
T0164 001:472 JLINK_WriteReg(R5, 0x00000000)  returns 0x00 (0000ms, 1116ms total)
T0164 001:472 JLINK_WriteReg(R6, 0x00000000)  returns 0x00 (0000ms, 1116ms total)
T0164 001:472 JLINK_WriteReg(R7, 0x00000000)  returns 0x00 (0000ms, 1116ms total)
T0164 001:472 JLINK_WriteReg(R8, 0x00000000)  returns 0x00 (0000ms, 1116ms total)
T0164 001:472 JLINK_WriteReg(R9, 0x20000160)  returns 0x00 (0000ms, 1116ms total)
T0164 001:472 JLINK_WriteReg(R10, 0x00000000)  returns 0x00 (0000ms, 1116ms total)
T0164 001:472 JLINK_WriteReg(R11, 0x00000000)  returns 0x00 (0000ms, 1116ms total)
T0164 001:472 JLINK_WriteReg(R12, 0x00000000)  returns 0x00 (0000ms, 1116ms total)
T0164 001:472 JLINK_WriteReg(R13, 0x20000800)  returns 0x00 (0000ms, 1116ms total)
T0164 001:472 JLINK_WriteReg(R14, 0x20000001)  returns 0x00 (0000ms, 1116ms total)
T0164 001:472 JLINK_WriteReg(R15, 0x200000F4)  returns 0x00 (0000ms, 1116ms total)
T0164 001:472 JLINK_WriteReg(XPSR, 0x01000000)  returns 0x00 (0000ms, 1116ms total)
T0164 001:472 JLINK_WriteReg(MSP, 0x20000800)  returns 0x00 (0000ms, 1116ms total)
T0164 001:472 JLINK_WriteReg(PSP, 0x20000800)  returns 0x00 (0000ms, 1116ms total)
T0164 001:472 JLINK_WriteReg(CFBP, 0x00000000)  returns 0x00 (0000ms, 1116ms total)
T0164 001:472 JLINK_SetBPEx(Addr = 0x20000000, Type = 0xFFFFFFF2)  returns 0x00000008 (0000ms, 1116ms total)
T0164 001:472 JLINK_Go() -- CPU_WriteMem(4 bytes @ 0xE0002008) -- CPU_WriteMem(4 bytes @ 0xE000200C) -- CPU_WriteMem(4 bytes @ 0xE0002010) -- CPU_WriteMem(4 bytes @ 0xE0002014) -- CPU_WriteMem(4 bytes @ 0xE0002018) -- CPU_WriteMem(4 bytes @ 0xE000201C) (0009ms, 1116ms total)
T0164 001:481 JLINK_IsHalted()  returns FALSE (0001ms, 1125ms total)
T0164 001:532 JLINK_IsHalted() -- CPU_ReadMem(2 bytes @ 0x20000000)  returns TRUE (0006ms, 1125ms total)
T0164 001:538 JLINK_ReadReg(R15)  returns 0x20000000 (0000ms, 1125ms total)
T0164 001:538 JLINK_ClrBPEx(BPHandle = 0x00000008)  returns 0x00 (0000ms, 1125ms total)
T0164 001:538 JLINK_ReadReg(R0)  returns 0x00000000 (0000ms, 1125ms total)
T0164 001:539 JLINK_WriteMem(0x20000164, 0x0400 Bytes, ...) -- Data:  00 78 05 F0 DC FC 00 F0 0F 00 4C 49 08 70 08 46 ... -- CPU_WriteMem(1024 bytes @ 0x20000164)  returns 0x400 (0006ms, 1125ms total)
T0164 001:545 JLINK_WriteReg(R0, 0x08001000)  returns 0x00 (0000ms, 1131ms total)
T0164 001:545 JLINK_WriteReg(R1, 0x00000400)  returns 0x00 (0000ms, 1131ms total)
T0164 001:545 JLINK_WriteReg(R2, 0x20000164)  returns 0x00 (0000ms, 1131ms total)
T0164 001:545 JLINK_WriteReg(R3, 0x00000000)  returns 0x00 (0000ms, 1131ms total)
T0164 001:545 JLINK_WriteReg(R4, 0x00000000)  returns 0x00 (0000ms, 1131ms total)
T0164 001:545 JLINK_WriteReg(R5, 0x00000000)  returns 0x00 (0000ms, 1131ms total)
T0164 001:545 JLINK_WriteReg(R6, 0x00000000)  returns 0x00 (0000ms, 1131ms total)
T0164 001:545 JLINK_WriteReg(R7, 0x00000000)  returns 0x00 (0001ms, 1131ms total)
T0164 001:546 JLINK_WriteReg(R8, 0x00000000)  returns 0x00 (0000ms, 1132ms total)
T0164 001:546 JLINK_WriteReg(R9, 0x20000160)  returns 0x00 (0000ms, 1132ms total)
T0164 001:546 JLINK_WriteReg(R10, 0x00000000)  returns 0x00 (0000ms, 1132ms total)
T0164 001:546 JLINK_WriteReg(R11, 0x00000000)  returns 0x00 (0000ms, 1132ms total)
T0164 001:546 JLINK_WriteReg(R12, 0x00000000)  returns 0x00 (0000ms, 1132ms total)
T0164 001:546 JLINK_WriteReg(R13, 0x20000800)  returns 0x00 (0000ms, 1132ms total)
T0164 001:546 JLINK_WriteReg(R14, 0x20000001)  returns 0x00 (0000ms, 1132ms total)
T0164 001:546 JLINK_WriteReg(R15, 0x200000F4)  returns 0x00 (0000ms, 1132ms total)
T0164 001:546 JLINK_WriteReg(XPSR, 0x01000000)  returns 0x00 (0000ms, 1132ms total)
T0164 001:546 JLINK_WriteReg(MSP, 0x20000800)  returns 0x00 (0000ms, 1132ms total)
T0164 001:546 JLINK_WriteReg(PSP, 0x20000800)  returns 0x00 (0000ms, 1132ms total)
T0164 001:546 JLINK_WriteReg(CFBP, 0x00000000)  returns 0x00 (0000ms, 1132ms total)
T0164 001:546 JLINK_SetBPEx(Addr = 0x20000000, Type = 0xFFFFFFF2)  returns 0x00000009 (0000ms, 1132ms total)
T0164 001:546 JLINK_Go() -- CPU_WriteMem(4 bytes @ 0xE0002008) -- CPU_WriteMem(4 bytes @ 0xE000200C) -- CPU_WriteMem(4 bytes @ 0xE0002010) -- CPU_WriteMem(4 bytes @ 0xE0002014) -- CPU_WriteMem(4 bytes @ 0xE0002018) -- CPU_WriteMem(4 bytes @ 0xE000201C) (0008ms, 1132ms total)
T0164 001:554 JLINK_IsHalted()  returns FALSE (0001ms, 1140ms total)
T0164 001:606 JLINK_IsHalted() -- CPU_ReadMem(2 bytes @ 0x20000000)  returns TRUE (0006ms, 1140ms total)
T0164 001:612 JLINK_ReadReg(R15)  returns 0x20000000 (0000ms, 1140ms total)
T0164 001:612 JLINK_ClrBPEx(BPHandle = 0x00000009)  returns 0x00 (0000ms, 1140ms total)
T0164 001:612 JLINK_ReadReg(R0)  returns 0x00000000 (0000ms, 1140ms total)
T0164 001:612 JLINK_WriteMem(0x20000164, 0x0400 Bytes, ...) -- Data:  03 68 1A 43 0A 60 05 E0 02 79 11 44 0A 68 03 68 ... -- CPU_WriteMem(1024 bytes @ 0x20000164)  returns 0x400 (0006ms, 1140ms total)
T0164 001:618 JLINK_WriteReg(R0, 0x08001400)  returns 0x00 (0000ms, 1146ms total)
T0164 001:618 JLINK_WriteReg(R1, 0x00000400)  returns 0x00 (0000ms, 1146ms total)
T0164 001:618 JLINK_WriteReg(R2, 0x20000164)  returns 0x00 (0000ms, 1146ms total)
T0164 001:618 JLINK_WriteReg(R3, 0x00000000)  returns 0x00 (0000ms, 1146ms total)
T0164 001:618 JLINK_WriteReg(R4, 0x00000000)  returns 0x00 (0000ms, 1146ms total)
T0164 001:618 JLINK_WriteReg(R5, 0x00000000)  returns 0x00 (0000ms, 1146ms total)
T0164 001:618 JLINK_WriteReg(R6, 0x00000000)  returns 0x00 (0000ms, 1146ms total)
T0164 001:618 JLINK_WriteReg(R7, 0x00000000)  returns 0x00 (0000ms, 1146ms total)
T0164 001:618 JLINK_WriteReg(R8, 0x00000000)  returns 0x00 (0000ms, 1146ms total)
T0164 001:618 JLINK_WriteReg(R9, 0x20000160)  returns 0x00 (0000ms, 1146ms total)
T0164 001:618 JLINK_WriteReg(R10, 0x00000000)  returns 0x00 (0000ms, 1146ms total)
T0164 001:618 JLINK_WriteReg(R11, 0x00000000)  returns 0x00 (0000ms, 1146ms total)
T0164 001:618 JLINK_WriteReg(R12, 0x00000000)  returns 0x00 (0000ms, 1146ms total)
T0164 001:618 JLINK_WriteReg(R13, 0x20000800)  returns 0x00 (0000ms, 1146ms total)
T0164 001:618 JLINK_WriteReg(R14, 0x20000001)  returns 0x00 (0000ms, 1146ms total)
T0164 001:619 JLINK_WriteReg(R15, 0x200000F4)  returns 0x00 (0000ms, 1146ms total)
T0164 001:619 JLINK_WriteReg(XPSR, 0x01000000)  returns 0x00 (0000ms, 1146ms total)
T0164 001:619 JLINK_WriteReg(MSP, 0x20000800)  returns 0x00 (0000ms, 1146ms total)
T0164 001:619 JLINK_WriteReg(PSP, 0x20000800)  returns 0x00 (0000ms, 1146ms total)
T0164 001:619 JLINK_WriteReg(CFBP, 0x00000000)  returns 0x00 (0000ms, 1146ms total)
T0164 001:619 JLINK_SetBPEx(Addr = 0x20000000, Type = 0xFFFFFFF2)  returns 0x0000000A (0000ms, 1146ms total)
T0164 001:619 JLINK_Go() -- CPU_WriteMem(4 bytes @ 0xE0002008) -- CPU_WriteMem(4 bytes @ 0xE000200C) -- CPU_WriteMem(4 bytes @ 0xE0002010) -- CPU_WriteMem(4 bytes @ 0xE0002014) -- CPU_WriteMem(4 bytes @ 0xE0002018) -- CPU_WriteMem(4 bytes @ 0xE000201C) (0008ms, 1146ms total)
T0164 001:627 JLINK_IsHalted()  returns FALSE (0001ms, 1154ms total)
T0164 001:679 JLINK_IsHalted() -- CPU_ReadMem(2 bytes @ 0x20000000)  returns TRUE (0007ms, 1154ms total)
T0164 001:686 JLINK_ReadReg(R15)  returns 0x20000000 (0000ms, 1154ms total)
T0164 001:686 JLINK_ClrBPEx(BPHandle = 0x0000000A)  returns 0x00 (0000ms, 1154ms total)
T0164 001:686 JLINK_ReadReg(R0)  returns 0x00000000 (0000ms, 1154ms total)
T0164 001:686 JLINK_WriteMem(0x20000164, 0x0400 Bytes, ...) -- Data:  1F 05 45 EA 17 47 39 43 4F F6 FF 57 3A 40 46 F4 ... -- CPU_WriteMem(1024 bytes @ 0x20000164)  returns 0x400 (0007ms, 1154ms total)
T0164 001:693 JLINK_WriteReg(R0, 0x08001800)  returns 0x00 (0000ms, 1161ms total)
T0164 001:693 JLINK_WriteReg(R1, 0x00000400)  returns 0x00 (0000ms, 1161ms total)
T0164 001:693 JLINK_WriteReg(R2, 0x20000164)  returns 0x00 (0000ms, 1161ms total)
T0164 001:693 JLINK_WriteReg(R3, 0x00000000)  returns 0x00 (0000ms, 1161ms total)
T0164 001:693 JLINK_WriteReg(R4, 0x00000000)  returns 0x00 (0000ms, 1161ms total)
T0164 001:693 JLINK_WriteReg(R5, 0x00000000)  returns 0x00 (0000ms, 1161ms total)
T0164 001:693 JLINK_WriteReg(R6, 0x00000000)  returns 0x00 (0000ms, 1161ms total)
T0164 001:693 JLINK_WriteReg(R7, 0x00000000)  returns 0x00 (0000ms, 1161ms total)
T0164 001:693 JLINK_WriteReg(R8, 0x00000000)  returns 0x00 (0000ms, 1161ms total)
T0164 001:693 JLINK_WriteReg(R9, 0x20000160)  returns 0x00 (0000ms, 1161ms total)
T0164 001:693 JLINK_WriteReg(R10, 0x00000000)  returns 0x00 (0000ms, 1161ms total)
T0164 001:693 JLINK_WriteReg(R11, 0x00000000)  returns 0x00 (0000ms, 1161ms total)
T0164 001:693 JLINK_WriteReg(R12, 0x00000000)  returns 0x00 (0000ms, 1161ms total)
T0164 001:693 JLINK_WriteReg(R13, 0x20000800)  returns 0x00 (0000ms, 1161ms total)
T0164 001:693 JLINK_WriteReg(R14, 0x20000001)  returns 0x00 (0000ms, 1161ms total)
T0164 001:693 JLINK_WriteReg(R15, 0x200000F4)  returns 0x00 (0000ms, 1161ms total)
T0164 001:693 JLINK_WriteReg(XPSR, 0x01000000)  returns 0x00 (0000ms, 1161ms total)
T0164 001:693 JLINK_WriteReg(MSP, 0x20000800)  returns 0x00 (0000ms, 1161ms total)
T0164 001:693 JLINK_WriteReg(PSP, 0x20000800)  returns 0x00 (0000ms, 1161ms total)
T0164 001:693 JLINK_WriteReg(CFBP, 0x00000000)  returns 0x00 (0000ms, 1161ms total)
T0164 001:693 JLINK_SetBPEx(Addr = 0x20000000, Type = 0xFFFFFFF2)  returns 0x0000000B (0000ms, 1161ms total)
T0164 001:693 JLINK_Go() -- CPU_WriteMem(4 bytes @ 0xE0002008) -- CPU_WriteMem(4 bytes @ 0xE000200C) -- CPU_WriteMem(4 bytes @ 0xE0002010) -- CPU_WriteMem(4 bytes @ 0xE0002014) -- CPU_WriteMem(4 bytes @ 0xE0002018) -- CPU_WriteMem(4 bytes @ 0xE000201C) (0008ms, 1161ms total)
T0164 001:701 JLINK_IsHalted()  returns FALSE (0001ms, 1169ms total)
T0164 001:753 JLINK_IsHalted() -- CPU_ReadMem(2 bytes @ 0x20000000)  returns TRUE (0005ms, 1169ms total)
T0164 001:758 JLINK_ReadReg(R15)  returns 0x20000000 (0000ms, 1169ms total)
T0164 001:758 JLINK_ClrBPEx(BPHandle = 0x0000000B)  returns 0x00 (0000ms, 1169ms total)
T0164 001:758 JLINK_ReadReg(R0)  returns 0x00000000 (0000ms, 1169ms total)
T0164 001:759 JLINK_WriteMem(0x20000164, 0x0400 Bytes, ...) -- Data:  70 47 0A 46 00 21 81 8B 4F F6 8F 73 19 40 11 43 ... -- CPU_WriteMem(1024 bytes @ 0x20000164)  returns 0x400 (0006ms, 1169ms total)
T0164 001:765 JLINK_WriteReg(R0, 0x08001C00)  returns 0x00 (0001ms, 1175ms total)
T0164 001:766 JLINK_WriteReg(R1, 0x00000400)  returns 0x00 (0000ms, 1176ms total)
T0164 001:766 JLINK_WriteReg(R2, 0x20000164)  returns 0x00 (0000ms, 1176ms total)
T0164 001:766 JLINK_WriteReg(R3, 0x00000000)  returns 0x00 (0000ms, 1176ms total)
T0164 001:766 JLINK_WriteReg(R4, 0x00000000)  returns 0x00 (0000ms, 1176ms total)
T0164 001:766 JLINK_WriteReg(R5, 0x00000000)  returns 0x00 (0000ms, 1176ms total)
T0164 001:766 JLINK_WriteReg(R6, 0x00000000)  returns 0x00 (0000ms, 1176ms total)
T0164 001:766 JLINK_WriteReg(R7, 0x00000000)  returns 0x00 (0000ms, 1176ms total)
T0164 001:766 JLINK_WriteReg(R8, 0x00000000)  returns 0x00 (0000ms, 1176ms total)
T0164 001:766 JLINK_WriteReg(R9, 0x20000160)  returns 0x00 (0000ms, 1176ms total)
T0164 001:766 JLINK_WriteReg(R10, 0x00000000)  returns 0x00 (0000ms, 1176ms total)
T0164 001:766 JLINK_WriteReg(R11, 0x00000000)  returns 0x00 (0000ms, 1176ms total)
T0164 001:766 JLINK_WriteReg(R12, 0x00000000)  returns 0x00 (0000ms, 1176ms total)
T0164 001:766 JLINK_WriteReg(R13, 0x20000800)  returns 0x00 (0000ms, 1176ms total)
T0164 001:766 JLINK_WriteReg(R14, 0x20000001)  returns 0x00 (0001ms, 1176ms total)
T0164 001:767 JLINK_WriteReg(R15, 0x200000F4)  returns 0x00 (0000ms, 1177ms total)
T0164 001:767 JLINK_WriteReg(XPSR, 0x01000000)  returns 0x00 (0000ms, 1177ms total)
T0164 001:767 JLINK_WriteReg(MSP, 0x20000800)  returns 0x00 (0000ms, 1177ms total)
T0164 001:767 JLINK_WriteReg(PSP, 0x20000800)  returns 0x00 (0000ms, 1177ms total)
T0164 001:767 JLINK_WriteReg(CFBP, 0x00000000)  returns 0x00 (0000ms, 1177ms total)
T0164 001:767 JLINK_SetBPEx(Addr = 0x20000000, Type = 0xFFFFFFF2)  returns 0x0000000C (0000ms, 1177ms total)
T0164 001:767 JLINK_Go() -- CPU_WriteMem(4 bytes @ 0xE0002008) -- CPU_WriteMem(4 bytes @ 0xE000200C) -- CPU_WriteMem(4 bytes @ 0xE0002010) -- CPU_WriteMem(4 bytes @ 0xE0002014) -- CPU_WriteMem(4 bytes @ 0xE0002018) -- CPU_WriteMem(4 bytes @ 0xE000201C) (0008ms, 1177ms total)
T0164 001:775 JLINK_IsHalted()  returns FALSE (0001ms, 1185ms total)
T0164 001:826 JLINK_IsHalted() -- CPU_ReadMem(2 bytes @ 0x20000000)  returns TRUE (0006ms, 1185ms total)
T0164 001:832 JLINK_ReadReg(R15)  returns 0x20000000 (0000ms, 1185ms total)
T0164 001:832 JLINK_ClrBPEx(BPHandle = 0x0000000C)  returns 0x00 (0000ms, 1185ms total)
T0164 001:832 JLINK_ReadReg(R0)  returns 0x00000000 (0000ms, 1185ms total)
T0164 001:833 JLINK_WriteMem(0x20000164, 0x0400 Bytes, ...) -- Data:  00 EA 01 00 45 49 A1 F8 04 08 70 47 00 21 45 48 ... -- CPU_WriteMem(1024 bytes @ 0x20000164)  returns 0x400 (0006ms, 1185ms total)
T0164 001:839 JLINK_WriteReg(R0, 0x08002000)  returns 0x00 (0000ms, 1191ms total)
T0164 001:839 JLINK_WriteReg(R1, 0x00000400)  returns 0x00 (0000ms, 1191ms total)
T0164 001:839 JLINK_WriteReg(R2, 0x20000164)  returns 0x00 (0000ms, 1191ms total)
T0164 001:839 JLINK_WriteReg(R3, 0x00000000)  returns 0x00 (0000ms, 1191ms total)
T0164 001:839 JLINK_WriteReg(R4, 0x00000000)  returns 0x00 (0000ms, 1191ms total)
T0164 001:839 JLINK_WriteReg(R5, 0x00000000)  returns 0x00 (0001ms, 1191ms total)
T0164 001:840 JLINK_WriteReg(R6, 0x00000000)  returns 0x00 (0000ms, 1192ms total)
T0164 001:840 JLINK_WriteReg(R7, 0x00000000)  returns 0x00 (0000ms, 1192ms total)
T0164 001:840 JLINK_WriteReg(R8, 0x00000000)  returns 0x00 (0000ms, 1192ms total)
T0164 001:840 JLINK_WriteReg(R9, 0x20000160)  returns 0x00 (0000ms, 1192ms total)
T0164 001:840 JLINK_WriteReg(R10, 0x00000000)  returns 0x00 (0000ms, 1192ms total)
T0164 001:840 JLINK_WriteReg(R11, 0x00000000)  returns 0x00 (0000ms, 1192ms total)
T0164 001:840 JLINK_WriteReg(R12, 0x00000000)  returns 0x00 (0000ms, 1192ms total)
T0164 001:840 JLINK_WriteReg(R13, 0x20000800)  returns 0x00 (0000ms, 1192ms total)
T0164 001:840 JLINK_WriteReg(R14, 0x20000001)  returns 0x00 (0000ms, 1192ms total)
T0164 001:840 JLINK_WriteReg(R15, 0x200000F4)  returns 0x00 (0000ms, 1192ms total)
T0164 001:840 JLINK_WriteReg(XPSR, 0x01000000)  returns 0x00 (0000ms, 1192ms total)
T0164 001:840 JLINK_WriteReg(MSP, 0x20000800)  returns 0x00 (0000ms, 1192ms total)
T0164 001:840 JLINK_WriteReg(PSP, 0x20000800)  returns 0x00 (0000ms, 1192ms total)
T0164 001:840 JLINK_WriteReg(CFBP, 0x00000000)  returns 0x00 (0000ms, 1192ms total)
T0164 001:840 JLINK_SetBPEx(Addr = 0x20000000, Type = 0xFFFFFFF2)  returns 0x0000000D (0000ms, 1192ms total)
T0164 001:840 JLINK_Go() -- CPU_WriteMem(4 bytes @ 0xE0002008) -- CPU_WriteMem(4 bytes @ 0xE000200C) -- CPU_WriteMem(4 bytes @ 0xE0002010) -- CPU_WriteMem(4 bytes @ 0xE0002014) -- CPU_WriteMem(4 bytes @ 0xE0002018) -- CPU_WriteMem(4 bytes @ 0xE000201C) (0008ms, 1192ms total)
T0164 001:849 JLINK_IsHalted()  returns FALSE (0001ms, 1200ms total)
T0164 001:901 JLINK_IsHalted() -- CPU_ReadMem(2 bytes @ 0x20000000)  returns TRUE (0005ms, 1200ms total)
T0164 001:906 JLINK_ReadReg(R15)  returns 0x20000000 (0000ms, 1200ms total)
T0164 001:906 JLINK_ClrBPEx(BPHandle = 0x0000000D)  returns 0x00 (0000ms, 1200ms total)
T0164 001:906 JLINK_ReadReg(R0)  returns 0x00000000 (0000ms, 1200ms total)
T0164 001:907 JLINK_WriteMem(0x20000164, 0x0400 Bytes, ...) -- Data:  6F 41 44 20 FF F7 9F FE 00 21 45 20 FF F7 9B FE ... -- CPU_WriteMem(1024 bytes @ 0x20000164)  returns 0x400 (0006ms, 1200ms total)
T0164 001:913 JLINK_WriteReg(R0, 0x08002400)  returns 0x00 (0000ms, 1206ms total)
T0164 001:913 JLINK_WriteReg(R1, 0x00000400)  returns 0x00 (0000ms, 1206ms total)
T0164 001:913 JLINK_WriteReg(R2, 0x20000164)  returns 0x00 (0000ms, 1206ms total)
T0164 001:913 JLINK_WriteReg(R3, 0x00000000)  returns 0x00 (0000ms, 1206ms total)
T0164 001:913 JLINK_WriteReg(R4, 0x00000000)  returns 0x00 (0000ms, 1206ms total)
T0164 001:913 JLINK_WriteReg(R5, 0x00000000)  returns 0x00 (0000ms, 1206ms total)
T0164 001:913 JLINK_WriteReg(R6, 0x00000000)  returns 0x00 (0000ms, 1206ms total)
T0164 001:913 JLINK_WriteReg(R7, 0x00000000)  returns 0x00 (0000ms, 1206ms total)
T0164 001:913 JLINK_WriteReg(R8, 0x00000000)  returns 0x00 (0000ms, 1206ms total)
T0164 001:913 JLINK_WriteReg(R9, 0x20000160)  returns 0x00 (0000ms, 1206ms total)
T0164 001:913 JLINK_WriteReg(R10, 0x00000000)  returns 0x00 (0000ms, 1206ms total)
T0164 001:913 JLINK_WriteReg(R11, 0x00000000)  returns 0x00 (0000ms, 1206ms total)
T0164 001:913 JLINK_WriteReg(R12, 0x00000000)  returns 0x00 (0000ms, 1206ms total)
T0164 001:913 JLINK_WriteReg(R13, 0x20000800)  returns 0x00 (0001ms, 1206ms total)
T0164 001:914 JLINK_WriteReg(R14, 0x20000001)  returns 0x00 (0000ms, 1207ms total)
T0164 001:914 JLINK_WriteReg(R15, 0x200000F4)  returns 0x00 (0000ms, 1207ms total)
T0164 001:914 JLINK_WriteReg(XPSR, 0x01000000)  returns 0x00 (0000ms, 1207ms total)
T0164 001:914 JLINK_WriteReg(MSP, 0x20000800)  returns 0x00 (0000ms, 1207ms total)
T0164 001:914 JLINK_WriteReg(PSP, 0x20000800)  returns 0x00 (0000ms, 1207ms total)
T0164 001:914 JLINK_WriteReg(CFBP, 0x00000000)  returns 0x00 (0000ms, 1207ms total)
T0164 001:914 JLINK_SetBPEx(Addr = 0x20000000, Type = 0xFFFFFFF2)  returns 0x0000000E (0000ms, 1207ms total)
T0164 001:914 JLINK_Go() -- CPU_WriteMem(4 bytes @ 0xE0002008) -- CPU_WriteMem(4 bytes @ 0xE000200C) -- CPU_WriteMem(4 bytes @ 0xE0002010) -- CPU_WriteMem(4 bytes @ 0xE0002014) -- CPU_WriteMem(4 bytes @ 0xE0002018) -- CPU_WriteMem(4 bytes @ 0xE000201C) (0008ms, 1207ms total)
T0164 001:922 JLINK_IsHalted()  returns FALSE (0001ms, 1215ms total)
T0164 001:974 JLINK_IsHalted() -- CPU_ReadMem(2 bytes @ 0x20000000)  returns TRUE (0006ms, 1215ms total)
T0164 001:980 JLINK_ReadReg(R15)  returns 0x20000000 (0000ms, 1215ms total)
T0164 001:980 JLINK_ClrBPEx(BPHandle = 0x0000000E)  returns 0x00 (0000ms, 1215ms total)
T0164 001:980 JLINK_ReadReg(R0)  returns 0x00000000 (0000ms, 1215ms total)
T0164 001:980 JLINK_WriteMem(0x20000164, 0x0400 Bytes, ...) -- Data:  FF F7 A1 FC 00 21 45 20 FF F7 9D FC 40 F2 3F 11 ... -- CPU_WriteMem(1024 bytes @ 0x20000164)  returns 0x400 (0007ms, 1215ms total)
T0164 001:987 JLINK_WriteReg(R0, 0x08002800)  returns 0x00 (0000ms, 1222ms total)
T0164 001:987 JLINK_WriteReg(R1, 0x00000400)  returns 0x00 (0000ms, 1222ms total)
T0164 001:987 JLINK_WriteReg(R2, 0x20000164)  returns 0x00 (0000ms, 1222ms total)
T0164 001:987 JLINK_WriteReg(R3, 0x00000000)  returns 0x00 (0000ms, 1222ms total)
T0164 001:987 JLINK_WriteReg(R4, 0x00000000)  returns 0x00 (0000ms, 1222ms total)
T0164 001:987 JLINK_WriteReg(R5, 0x00000000)  returns 0x00 (0000ms, 1222ms total)
T0164 001:987 JLINK_WriteReg(R6, 0x00000000)  returns 0x00 (0000ms, 1222ms total)
T0164 001:987 JLINK_WriteReg(R7, 0x00000000)  returns 0x00 (0000ms, 1222ms total)
T0164 001:987 JLINK_WriteReg(R8, 0x00000000)  returns 0x00 (0000ms, 1222ms total)
T0164 001:987 JLINK_WriteReg(R9, 0x20000160)  returns 0x00 (0000ms, 1222ms total)
T0164 001:987 JLINK_WriteReg(R10, 0x00000000)  returns 0x00 (0000ms, 1222ms total)
T0164 001:987 JLINK_WriteReg(R11, 0x00000000)  returns 0x00 (0000ms, 1222ms total)
T0164 001:987 JLINK_WriteReg(R12, 0x00000000)  returns 0x00 (0000ms, 1222ms total)
T0164 001:987 JLINK_WriteReg(R13, 0x20000800)  returns 0x00 (0000ms, 1222ms total)
T0164 001:987 JLINK_WriteReg(R14, 0x20000001)  returns 0x00 (0000ms, 1222ms total)
T0164 001:987 JLINK_WriteReg(R15, 0x200000F4)  returns 0x00 (0000ms, 1222ms total)
T0164 001:987 JLINK_WriteReg(XPSR, 0x01000000)  returns 0x00 (0000ms, 1222ms total)
T0164 001:987 JLINK_WriteReg(MSP, 0x20000800)  returns 0x00 (0000ms, 1222ms total)
T0164 001:987 JLINK_WriteReg(PSP, 0x20000800)  returns 0x00 (0000ms, 1222ms total)
T0164 001:987 JLINK_WriteReg(CFBP, 0x00000000)  returns 0x00 (0000ms, 1222ms total)
T0164 001:987 JLINK_SetBPEx(Addr = 0x20000000, Type = 0xFFFFFFF2)  returns 0x0000000F (0000ms, 1222ms total)
T0164 001:987 JLINK_Go() -- CPU_WriteMem(4 bytes @ 0xE0002008) -- CPU_WriteMem(4 bytes @ 0xE000200C) -- CPU_WriteMem(4 bytes @ 0xE0002010) -- CPU_WriteMem(4 bytes @ 0xE0002014) -- CPU_WriteMem(4 bytes @ 0xE0002018) -- CPU_WriteMem(4 bytes @ 0xE000201C) (0007ms, 1222ms total)
T0164 001:994 JLINK_IsHalted()  returns FALSE (0001ms, 1229ms total)
T0164 002:046 JLINK_IsHalted() -- CPU_ReadMem(2 bytes @ 0x20000000)  returns TRUE (0005ms, 1229ms total)
T0164 002:051 JLINK_ReadReg(R15)  returns 0x20000000 (0000ms, 1229ms total)
T0164 002:051 JLINK_ClrBPEx(BPHandle = 0x0000000F)  returns 0x00 (0000ms, 1229ms total)
T0164 002:051 JLINK_ReadReg(R0)  returns 0x00000000 (0001ms, 1229ms total)
T0164 002:053 JLINK_WriteMem(0x20000164, 0x0400 Bytes, ...) -- Data:  F0 B5 04 46 0D 46 16 46 1F 46 2B 46 32 46 29 46 ... -- CPU_WriteMem(1024 bytes @ 0x20000164)  returns 0x400 (0007ms, 1230ms total)
T0164 002:060 JLINK_WriteReg(R0, 0x08002C00)  returns 0x00 (0000ms, 1237ms total)
T0164 002:060 JLINK_WriteReg(R1, 0x00000400)  returns 0x00 (0000ms, 1237ms total)
T0164 002:060 JLINK_WriteReg(R2, 0x20000164)  returns 0x00 (0000ms, 1237ms total)
T0164 002:060 JLINK_WriteReg(R3, 0x00000000)  returns 0x00 (0000ms, 1237ms total)
T0164 002:060 JLINK_WriteReg(R4, 0x00000000)  returns 0x00 (0000ms, 1237ms total)
T0164 002:060 JLINK_WriteReg(R5, 0x00000000)  returns 0x00 (0000ms, 1237ms total)
T0164 002:060 JLINK_WriteReg(R6, 0x00000000)  returns 0x00 (0000ms, 1237ms total)
T0164 002:060 JLINK_WriteReg(R7, 0x00000000)  returns 0x00 (0000ms, 1237ms total)
T0164 002:060 JLINK_WriteReg(R8, 0x00000000)  returns 0x00 (0000ms, 1237ms total)
T0164 002:060 JLINK_WriteReg(R9, 0x20000160)  returns 0x00 (0000ms, 1237ms total)
T0164 002:060 JLINK_WriteReg(R10, 0x00000000)  returns 0x00 (0000ms, 1237ms total)
T0164 002:060 JLINK_WriteReg(R11, 0x00000000)  returns 0x00 (0000ms, 1237ms total)
T0164 002:060 JLINK_WriteReg(R12, 0x00000000)  returns 0x00 (0000ms, 1237ms total)
T0164 002:060 JLINK_WriteReg(R13, 0x20000800)  returns 0x00 (0000ms, 1237ms total)
T0164 002:060 JLINK_WriteReg(R14, 0x20000001)  returns 0x00 (0000ms, 1237ms total)
T0164 002:060 JLINK_WriteReg(R15, 0x200000F4)  returns 0x00 (0000ms, 1237ms total)
T0164 002:060 JLINK_WriteReg(XPSR, 0x01000000)  returns 0x00 (0000ms, 1237ms total)
T0164 002:060 JLINK_WriteReg(MSP, 0x20000800)  returns 0x00 (0000ms, 1237ms total)
T0164 002:060 JLINK_WriteReg(PSP, 0x20000800)  returns 0x00 (0000ms, 1237ms total)
T0164 002:060 JLINK_WriteReg(CFBP, 0x00000000)  returns 0x00 (0000ms, 1237ms total)
T0164 002:060 JLINK_SetBPEx(Addr = 0x20000000, Type = 0xFFFFFFF2)  returns 0x00000010 (0000ms, 1237ms total)
T0164 002:060 JLINK_Go() -- CPU_WriteMem(4 bytes @ 0xE0002008) -- CPU_WriteMem(4 bytes @ 0xE000200C) -- CPU_WriteMem(4 bytes @ 0xE0002010) -- CPU_WriteMem(4 bytes @ 0xE0002014) -- CPU_WriteMem(4 bytes @ 0xE0002018) -- CPU_WriteMem(4 bytes @ 0xE000201C) (0009ms, 1237ms total)
T0164 002:070 JLINK_IsHalted()  returns FALSE (0001ms, 1246ms total)
T0164 002:121 JLINK_IsHalted() -- CPU_ReadMem(2 bytes @ 0x20000000)  returns TRUE (0006ms, 1246ms total)
T0164 002:127 JLINK_ReadReg(R15)  returns 0x20000000 (0000ms, 1246ms total)
T0164 002:127 JLINK_ClrBPEx(BPHandle = 0x00000010)  returns 0x00 (0000ms, 1246ms total)
T0164 002:127 JLINK_ReadReg(R0)  returns 0x00000000 (0000ms, 1246ms total)
T0164 002:128 JLINK_WriteMem(0x20000164, 0x0400 Bytes, ...) -- Data:  0C 20 C7 E7 14 F0 80 6F 01 D0 0D 20 C2 E7 14 F0 ... -- CPU_WriteMem(1024 bytes @ 0x20000164)  returns 0x400 (0006ms, 1246ms total)
T0164 002:134 JLINK_WriteReg(R0, 0x08003000)  returns 0x00 (0000ms, 1252ms total)
T0164 002:134 JLINK_WriteReg(R1, 0x00000400)  returns 0x00 (0000ms, 1252ms total)
T0164 002:134 JLINK_WriteReg(R2, 0x20000164)  returns 0x00 (0001ms, 1252ms total)
T0164 002:135 JLINK_WriteReg(R3, 0x00000000)  returns 0x00 (0000ms, 1253ms total)
T0164 002:135 JLINK_WriteReg(R4, 0x00000000)  returns 0x00 (0000ms, 1253ms total)
T0164 002:135 JLINK_WriteReg(R5, 0x00000000)  returns 0x00 (0000ms, 1253ms total)
T0164 002:135 JLINK_WriteReg(R6, 0x00000000)  returns 0x00 (0000ms, 1253ms total)
T0164 002:135 JLINK_WriteReg(R7, 0x00000000)  returns 0x00 (0000ms, 1253ms total)
T0164 002:135 JLINK_WriteReg(R8, 0x00000000)  returns 0x00 (0000ms, 1253ms total)
T0164 002:135 JLINK_WriteReg(R9, 0x20000160)  returns 0x00 (0000ms, 1253ms total)
T0164 002:135 JLINK_WriteReg(R10, 0x00000000)  returns 0x00 (0000ms, 1253ms total)
T0164 002:135 JLINK_WriteReg(R11, 0x00000000)  returns 0x00 (0000ms, 1253ms total)
T0164 002:135 JLINK_WriteReg(R12, 0x00000000)  returns 0x00 (0000ms, 1253ms total)
T0164 002:135 JLINK_WriteReg(R13, 0x20000800)  returns 0x00 (0000ms, 1253ms total)
T0164 002:135 JLINK_WriteReg(R14, 0x20000001)  returns 0x00 (0000ms, 1253ms total)
T0164 002:135 JLINK_WriteReg(R15, 0x200000F4)  returns 0x00 (0000ms, 1253ms total)
T0164 002:135 JLINK_WriteReg(XPSR, 0x01000000)  returns 0x00 (0000ms, 1253ms total)
T0164 002:135 JLINK_WriteReg(MSP, 0x20000800)  returns 0x00 (0000ms, 1253ms total)
T0164 002:135 JLINK_WriteReg(PSP, 0x20000800)  returns 0x00 (0000ms, 1253ms total)
T0164 002:135 JLINK_WriteReg(CFBP, 0x00000000)  returns 0x00 (0000ms, 1253ms total)
T0164 002:135 JLINK_SetBPEx(Addr = 0x20000000, Type = 0xFFFFFFF2)  returns 0x00000011 (0000ms, 1253ms total)
T0164 002:135 JLINK_Go() -- CPU_WriteMem(4 bytes @ 0xE0002008) -- CPU_WriteMem(4 bytes @ 0xE000200C) -- CPU_WriteMem(4 bytes @ 0xE0002010) -- CPU_WriteMem(4 bytes @ 0xE0002014) -- CPU_WriteMem(4 bytes @ 0xE0002018) -- CPU_WriteMem(4 bytes @ 0xE000201C) (0009ms, 1253ms total)
T0164 002:144 JLINK_IsHalted()  returns FALSE (0001ms, 1262ms total)
T0164 002:196 JLINK_IsHalted() -- CPU_ReadMem(2 bytes @ 0x20000000)  returns TRUE (0005ms, 1262ms total)
T0164 002:201 JLINK_ReadReg(R15)  returns 0x20000000 (0000ms, 1262ms total)
T0164 002:201 JLINK_ClrBPEx(BPHandle = 0x00000011)  returns 0x00 (0000ms, 1262ms total)
T0164 002:201 JLINK_ReadReg(R0)  returns 0x00000000 (0000ms, 1262ms total)
T0164 002:202 JLINK_WriteMem(0x20000164, 0x0400 Bytes, ...) -- Data:  C2 03 0B 75 02 F0 07 03 4B 75 5C 4B 9B 68 C3 F3 ... -- CPU_WriteMem(1024 bytes @ 0x20000164)  returns 0x400 (0006ms, 1262ms total)
T0164 002:208 JLINK_WriteReg(R0, 0x08003400)  returns 0x00 (0000ms, 1268ms total)
T0164 002:208 JLINK_WriteReg(R1, 0x00000400)  returns 0x00 (0000ms, 1268ms total)
